
Circuit: photodiode amplifier circuit

                          photodiode amplifier circuit
                          Transient Analysis  Thu Feb 17 14:44:16  2022
--------------------------------------------------------------------------------
Index   time            v(6)            v(2)            
--------------------------------------------------------------------------------
0	0.000000e+00	-1.92528e-05	0.000000e+00	
1	5.000000e-08	-3.30052e-04	3.141593e-03	
2	5.042165e-08	-3.32695e-04	3.168086e-03	
3	5.126495e-08	-3.38026e-04	3.221072e-03	
4	5.295155e-08	-3.48964e-04	3.327044e-03	
5	5.632475e-08	-3.71982e-04	3.538988e-03	
6	6.307114e-08	-4.22973e-04	3.962877e-03	
7	7.656394e-08	-5.47818e-04	4.810654e-03	
8	1.035495e-07	-9.12378e-04	6.506208e-03	
9	1.364309e-07	-1.61784e-03	8.572203e-03	
10	1.800768e-07	-3.12782e-03	1.131456e-02	
11	2.318383e-07	-5.98988e-03	1.456683e-02	
12	2.983095e-07	-1.18563e-02	1.874333e-02	
13	3.761210e-07	-2.27377e-02	2.363236e-02	
14	4.725900e-07	-4.37914e-02	2.969366e-02	
15	5.663911e-07	-7.31142e-02	3.558733e-02	
16	6.759385e-07	-1.16827e-01	4.247034e-02	
17	7.750474e-07	-1.61967e-01	4.869747e-02	
18	8.854913e-07	-2.14896e-01	5.563677e-02	
19	1.030336e-06	-2.85612e-01	6.473746e-02	
20	1.181262e-06	-3.59677e-01	7.422023e-02	
21	1.437327e-06	-4.85426e-01	9.030871e-02	
22	1.858518e-06	-6.92299e-01	1.167715e-01	
23	2.700899e-06	-1.10610e+00	1.696943e-01	
24	4.385660e-06	-1.93396e+00	2.755243e-01	
25	7.755184e-06	-3.59045e+00	4.870798e-01	
26	9.226626e-06	-4.31397e+00	5.794013e-01	
27	1.015550e-05	-4.76927e+00	6.376558e-01	
28	1.070535e-05	-5.01865e+00	6.721298e-01	
29	1.099770e-05	-5.11259e+00	6.904562e-01	
30	1.116661e-05	-5.14468e+00	7.010431e-01	
31	1.125344e-05	-5.15438e+00	7.064853e-01	
32	1.139005e-05	-5.16290e+00	7.150469e-01	
33	1.148523e-05	-5.16488e+00	7.210119e-01	
34	1.158807e-05	-5.16596e+00	7.274566e-01	
35	1.170195e-05	-5.16628e+00	7.345929e-01	
36	1.182505e-05	-5.16649e+00	7.423066e-01	
37	1.199461e-05	-5.16649e+00	7.529301e-01	
38	1.221003e-05	-5.16654e+00	7.664267e-01	
39	1.263201e-05	-5.16651e+00	7.928596e-01	
40	1.347597e-05	-5.16654e+00	8.457085e-01	
41	1.516388e-05	-5.16651e+00	9.513335e-01	
42	1.853970e-05	-5.16653e+00	1.162251e+00	
43	2.353970e-05	-5.16650e+00	1.473656e+00	
44	2.853970e-05	-5.16653e+00	1.783607e+00	
45	3.158552e-05	-5.16640e+00	1.971575e+00	
46	3.524919e-05	-5.16646e+00	2.196710e+00	
47	3.822906e-05	-5.16640e+00	2.378971e+00	
48	4.175064e-05	-5.16646e+00	2.593287e+00	
49	4.675064e-05	-5.16640e+00	2.895369e+00	
50	5.175064e-05	-5.16646e+00	3.194593e+00	
51	5.675064e-05	-5.16640e+00	3.490665e+00	
52	6.175064e-05	-5.16646e+00	3.783293e+00	
53	6.675064e-05	-5.16641e+00	4.072186e+00	
54	7.175064e-05	-5.16646e+00	4.357061e+00	

Index   time            v(6)            v(2)            
--------------------------------------------------------------------------------
55	7.675064e-05	-5.16641e+00	4.637636e+00	
56	8.175064e-05	-5.16646e+00	4.913634e+00	
57	8.675064e-05	-5.16641e+00	5.184783e+00	
58	9.175064e-05	-5.16646e+00	5.450815e+00	
59	9.675064e-05	-5.16641e+00	5.711468e+00	
60	1.017506e-04	-5.16646e+00	5.966484e+00	
61	1.067506e-04	-5.16641e+00	6.215612e+00	
62	1.117506e-04	-5.16646e+00	6.458606e+00	
63	1.167506e-04	-5.16641e+00	6.695226e+00	
64	1.217506e-04	-5.16645e+00	6.925239e+00	
65	1.267506e-04	-5.16641e+00	7.148417e+00	
66	1.317506e-04	-5.16645e+00	7.364541e+00	
67	1.367506e-04	-5.16641e+00	7.573397e+00	
68	1.417506e-04	-5.16645e+00	7.774779e+00	
69	1.467506e-04	-5.16641e+00	7.968488e+00	
70	1.517506e-04	-5.16645e+00	8.154333e+00	
71	1.567506e-04	-5.16641e+00	8.332131e+00	
72	1.617506e-04	-5.16645e+00	8.501706e+00	
73	1.667506e-04	-5.16641e+00	8.662891e+00	
74	1.717506e-04	-5.16645e+00	8.815527e+00	
75	1.767506e-04	-5.16641e+00	8.959462e+00	
76	1.817506e-04	-5.16645e+00	9.094556e+00	
77	1.867506e-04	-5.16641e+00	9.220675e+00	
78	1.917506e-04	-5.16645e+00	9.337694e+00	
79	1.967506e-04	-5.16641e+00	9.445498e+00	
80	2.017506e-04	-5.16645e+00	9.543980e+00	
81	2.067506e-04	-5.16641e+00	9.633043e+00	
82	2.117506e-04	-5.16645e+00	9.712600e+00	
83	2.167506e-04	-5.16641e+00	9.782572e+00	
84	2.217506e-04	-5.16645e+00	9.842889e+00	
85	2.267506e-04	-5.16641e+00	9.893493e+00	
86	2.317506e-04	-5.16645e+00	9.934333e+00	
87	2.367506e-04	-5.16641e+00	9.965369e+00	
88	2.417506e-04	-5.16645e+00	9.986570e+00	
89	2.467506e-04	-5.16641e+00	9.997916e+00	
90	2.517506e-04	-5.16645e+00	9.999395e+00	
91	2.567506e-04	-5.16641e+00	9.991006e+00	
92	2.617506e-04	-5.16645e+00	9.972757e+00	
93	2.667506e-04	-5.16641e+00	9.944666e+00	
94	2.717506e-04	-5.16645e+00	9.906761e+00	
95	2.767506e-04	-5.16641e+00	9.859079e+00	
96	2.817506e-04	-5.16645e+00	9.801667e+00	
97	2.867506e-04	-5.16641e+00	9.734583e+00	
98	2.917506e-04	-5.16645e+00	9.657891e+00	
99	2.967506e-04	-5.16641e+00	9.571669e+00	
100	3.017506e-04	-5.16645e+00	9.476000e+00	
101	3.067506e-04	-5.16642e+00	9.370979e+00	
102	3.117506e-04	-5.16645e+00	9.256711e+00	
103	3.167506e-04	-5.16642e+00	9.133307e+00	
104	3.217506e-04	-5.16645e+00	9.000890e+00	
105	3.267506e-04	-5.16642e+00	8.859590e+00	
106	3.317506e-04	-5.16645e+00	8.709547e+00	
107	3.367506e-04	-5.16642e+00	8.550908e+00	
108	3.417506e-04	-5.16645e+00	8.383831e+00	
109	3.467506e-04	-5.16642e+00	8.208480e+00	
110	3.517506e-04	-5.16645e+00	8.025028e+00	
111	3.567506e-04	-5.16642e+00	7.833656e+00	
112	3.617506e-04	-5.16645e+00	7.634554e+00	

Index   time            v(6)            v(2)            
--------------------------------------------------------------------------------
113	3.667506e-04	-5.16642e+00	7.427917e+00	
114	3.717506e-04	-5.16645e+00	7.213949e+00	
115	3.767506e-04	-5.16642e+00	6.992863e+00	
116	3.817506e-04	-5.16645e+00	6.764875e+00	
117	3.867506e-04	-5.16642e+00	6.530211e+00	
118	3.917506e-04	-5.16645e+00	6.289103e+00	
119	3.967506e-04	-5.16642e+00	6.041788e+00	
120	4.017506e-04	-5.16645e+00	5.788510e+00	
121	4.067506e-04	-5.16642e+00	5.529520e+00	
122	4.117506e-04	-5.16645e+00	5.265073e+00	
123	4.167506e-04	-5.16642e+00	4.995430e+00	
124	4.217506e-04	-5.16645e+00	4.720857e+00	
125	4.267506e-04	-5.16642e+00	4.441625e+00	
126	4.317506e-04	-5.16644e+00	4.158010e+00	
127	4.367506e-04	-5.16642e+00	3.870291e+00	
128	4.417506e-04	-5.16644e+00	3.578753e+00	
129	4.467506e-04	-5.16642e+00	3.283683e+00	
130	4.517506e-04	-5.16644e+00	2.985373e+00	
131	4.567506e-04	-5.16642e+00	2.684116e+00	
132	4.617506e-04	-5.16644e+00	2.380210e+00	
133	4.667506e-04	-5.16642e+00	2.073956e+00	
134	4.717506e-04	-5.16644e+00	1.765654e+00	
135	4.767506e-04	-5.16642e+00	1.455610e+00	
136	4.817506e-04	-5.16644e+00	1.144130e+00	
137	4.867506e-04	-5.16642e+00	8.315205e-01	
138	4.917506e-04	-5.16644e+00	5.180904e-01	
139	4.967506e-04	-5.16642e+00	2.041490e-01	
140	5.017506e-04	-5.16644e+00	-1.09994e-01	
141	5.067506e-04	-5.16642e+00	-4.24028e-01	
142	5.117506e-04	-5.16644e+00	-7.37644e-01	
143	5.167506e-04	-5.16642e+00	-1.05053e+00	
144	5.217506e-04	-5.16644e+00	-1.36238e+00	
145	5.267506e-04	-5.16642e+00	-1.67289e+00	
146	5.317506e-04	-5.16644e+00	-1.98175e+00	
147	5.367506e-04	-5.16642e+00	-2.28865e+00	
148	5.417506e-04	-5.16644e+00	-2.59329e+00	
149	5.467506e-04	-5.16642e+00	-2.89537e+00	
150	5.517506e-04	-5.16644e+00	-3.19459e+00	
151	5.567506e-04	-5.16642e+00	-3.49067e+00	
152	5.617506e-04	-5.16644e+00	-3.78329e+00	
153	5.667506e-04	-5.16642e+00	-4.07219e+00	
154	5.717506e-04	-5.16644e+00	-4.35706e+00	
155	5.767506e-04	-5.16642e+00	-4.63764e+00	
156	5.817506e-04	-5.16644e+00	-4.91363e+00	
157	5.836518e-04	-5.16642e+00	-5.01732e+00	
158	5.848740e-04	-5.16644e+00	-5.08360e+00	
159	5.855213e-04	-5.16643e+00	-5.11858e+00	
160	5.862890e-04	-5.16645e+00	-5.15996e+00	
161	5.866638e-04	-5.16643e+00	-5.18012e+00	
162	5.870522e-04	-5.16645e+00	-5.20097e+00	
163	5.874528e-04	-5.16644e+00	-5.22246e+00	
164	5.879891e-04	-5.16645e+00	-5.25116e+00	
165	5.886063e-04	-5.16643e+00	-5.28413e+00	
166	5.891290e-04	-5.16639e+00	-5.31198e+00	
167	5.897575e-04	-5.16636e+00	-5.34540e+00	
168	5.904541e-04	-5.16639e+00	-5.38234e+00	
169	5.915176e-04	-5.16636e+00	-5.43853e+00	
170	5.929517e-04	-5.16638e+00	-5.51393e+00	

Index   time            v(6)            v(2)            
--------------------------------------------------------------------------------
171	5.958198e-04	-5.16636e+00	-5.66336e+00	
172	6.008198e-04	-5.16638e+00	-5.91945e+00	
173	6.058198e-04	-5.16635e+00	-6.16969e+00	
174	6.077260e-04	-5.16403e+00	-6.26350e+00	
175	6.084454e-04	-5.03537e+00	-6.29867e+00	
176	6.087278e-04	-4.91791e+00	-6.31245e+00	
177	6.090463e-04	-4.77043e+00	-6.32795e+00	
178	6.093373e-04	-4.63127e+00	-6.34210e+00	
179	6.096448e-04	-4.48387e+00	-6.35703e+00	
180	6.101761e-04	-4.22806e+00	-6.38276e+00	
181	6.111735e-04	-3.74746e+00	-6.43088e+00	
182	6.129873e-04	-2.87010e+00	-6.51773e+00	
183	6.155947e-04	-1.60295e+00	-6.64110e+00	
184	6.205947e-04	8.483874e-01	-6.87266e+00	
185	6.255947e-04	3.326032e+00	-7.09744e+00	
186	6.276558e-04	4.355019e+00	-7.18807e+00	
187	6.288931e-04	4.963275e+00	-7.24190e+00	
188	6.292820e-04	5.105520e+00	-7.25873e+00	
189	6.295354e-04	5.151978e+00	-7.26967e+00	
190	6.296412e-04	5.160768e+00	-7.27423e+00	
191	6.297626e-04	5.164653e+00	-7.27947e+00	
192	6.298369e-04	5.165555e+00	-7.28267e+00	
193	6.299465e-04	5.166123e+00	-7.28738e+00	
194	6.300629e-04	5.166408e+00	-7.29239e+00	
195	6.301957e-04	5.166467e+00	-7.29810e+00	
196	6.304031e-04	5.166515e+00	-7.30700e+00	
197	6.306746e-04	5.166499e+00	-7.31864e+00	
198	6.312177e-04	5.166514e+00	-7.34185e+00	
199	6.323038e-04	5.166497e+00	-7.38801e+00	
200	6.344761e-04	5.166508e+00	-7.47930e+00	
201	6.388205e-04	5.166490e+00	-7.65768e+00	
202	6.438205e-04	5.166502e+00	-7.85591e+00	
203	6.488205e-04	5.166451e+00	-8.04639e+00	
204	6.523356e-04	5.166375e+00	-8.17556e+00	
205	6.552482e-04	5.166446e+00	-8.27956e+00	
206	6.583848e-04	5.166377e+00	-8.38847e+00	
207	6.633848e-04	5.166444e+00	-8.55532e+00	
208	6.683848e-04	5.166379e+00	-8.71372e+00	
209	6.733848e-04	5.166443e+00	-8.86353e+00	
210	6.783848e-04	5.166380e+00	-9.00459e+00	
211	6.833848e-04	5.166441e+00	-9.13677e+00	
212	6.883848e-04	5.166381e+00	-9.25993e+00	
213	6.933848e-04	5.166440e+00	-9.37395e+00	
214	6.983848e-04	5.166382e+00	-9.47871e+00	
215	7.033848e-04	5.166439e+00	-9.57413e+00	
216	7.083848e-04	5.166383e+00	-9.66009e+00	
217	7.133848e-04	5.166438e+00	-9.73653e+00	
218	7.183848e-04	5.166384e+00	-9.80335e+00	
219	7.233848e-04	5.166437e+00	-9.86050e+00	
220	7.283848e-04	5.166385e+00	-9.90792e+00	
221	7.333848e-04	5.166437e+00	-9.94556e+00	
222	7.383848e-04	5.166386e+00	-9.97338e+00	
223	7.433848e-04	5.166436e+00	-9.99136e+00	
224	7.483848e-04	5.166387e+00	-9.99949e+00	
225	7.533848e-04	5.166435e+00	-9.99774e+00	
226	7.583848e-04	5.166387e+00	-9.98613e+00	
227	7.633848e-04	5.166434e+00	-9.96466e+00	
228	7.683848e-04	5.166388e+00	-9.93336e+00	

Index   time            v(6)            v(2)            
--------------------------------------------------------------------------------
229	7.733848e-04	5.166434e+00	-9.89225e+00	
230	7.783848e-04	5.166388e+00	-9.84138e+00	
231	7.833848e-04	5.166433e+00	-9.78080e+00	
232	7.883848e-04	5.166389e+00	-9.71057e+00	
233	7.933848e-04	5.166433e+00	-9.63076e+00	
234	7.983848e-04	5.166390e+00	-9.54144e+00	
235	8.033848e-04	5.166432e+00	-9.44270e+00	
236	8.083848e-04	5.166390e+00	-9.33465e+00	
237	8.133848e-04	5.166432e+00	-9.21738e+00	
238	8.183848e-04	5.166391e+00	-9.09102e+00	
239	8.233848e-04	5.166431e+00	-8.95568e+00	
240	8.283848e-04	5.166391e+00	-8.81151e+00	
241	8.333848e-04	5.166431e+00	-8.65864e+00	
242	8.383848e-04	5.166391e+00	-8.49722e+00	
243	8.433848e-04	5.166430e+00	-8.32742e+00	
244	8.483848e-04	5.166392e+00	-8.14941e+00	
245	8.533848e-04	5.166430e+00	-7.96334e+00	
246	8.583848e-04	5.166392e+00	-7.76943e+00	
247	8.633848e-04	5.166430e+00	-7.56784e+00	
248	8.683848e-04	5.166393e+00	-7.35878e+00	
249	8.733848e-04	5.166429e+00	-7.14246e+00	
250	8.783848e-04	5.166393e+00	-6.91910e+00	
251	8.833848e-04	5.166429e+00	-6.68890e+00	
252	8.883848e-04	5.166393e+00	-6.45211e+00	
253	8.933848e-04	5.166429e+00	-6.20894e+00	
254	8.983848e-04	5.166394e+00	-5.95965e+00	
255	9.033848e-04	5.166428e+00	-5.70448e+00	
256	9.083848e-04	5.166394e+00	-5.44368e+00	
257	9.133848e-04	5.166428e+00	-5.17751e+00	
258	9.183848e-04	5.166394e+00	-4.90622e+00	
259	9.233848e-04	5.166428e+00	-4.63010e+00	
260	9.283848e-04	5.166394e+00	-4.34940e+00	
261	9.333848e-04	5.166427e+00	-4.06441e+00	
262	9.383848e-04	5.166395e+00	-3.77541e+00	
263	9.433848e-04	5.166427e+00	-3.48269e+00	
264	9.483848e-04	5.166395e+00	-3.18653e+00	
265	9.533848e-04	5.166427e+00	-2.88722e+00	
266	9.583848e-04	5.166395e+00	-2.58507e+00	
267	9.633848e-04	5.166427e+00	-2.28036e+00	
268	9.683848e-04	5.166395e+00	-1.97340e+00	
269	9.733848e-04	5.166426e+00	-1.66450e+00	
270	9.783848e-04	5.166396e+00	-1.35395e+00	
271	9.833848e-04	5.166426e+00	-1.04207e+00	
272	9.883848e-04	5.166396e+00	-7.29158e-01	
273	9.933848e-04	5.166426e+00	-4.15527e-01	
274	9.983848e-04	5.166396e+00	-1.01486e-01	
275	1.003385e-03	5.166426e+00	2.126558e-01	
276	1.008385e-03	5.166396e+00	5.265874e-01	
277	1.013385e-03	5.166426e+00	8.399994e-01	
278	1.018385e-03	5.166396e+00	1.152582e+00	
279	1.023385e-03	5.166425e+00	1.464028e+00	
280	1.028385e-03	5.166397e+00	1.774029e+00	
281	1.033385e-03	5.166425e+00	2.082278e+00	
282	1.038385e-03	5.166397e+00	2.388473e+00	
283	1.043385e-03	5.166425e+00	2.692311e+00	
284	1.048385e-03	5.166397e+00	2.993492e+00	
285	1.053385e-03	5.166425e+00	3.291719e+00	
286	1.058385e-03	5.166397e+00	3.586697e+00	

Index   time            v(6)            v(2)            
--------------------------------------------------------------------------------
287	1.063385e-03	5.166425e+00	3.878135e+00	
288	1.068385e-03	5.166397e+00	4.165747e+00	
289	1.073385e-03	5.166424e+00	4.449247e+00	
290	1.078385e-03	5.166398e+00	4.728356e+00	
291	1.083385e-03	5.166424e+00	5.002799e+00	
292	1.085289e-03	5.166401e+00	5.106052e+00	
293	1.086104e-03	5.166431e+00	5.150001e+00	
294	1.086946e-03	5.166411e+00	5.195262e+00	
295	1.087320e-03	5.166435e+00	5.215333e+00	
296	1.087771e-03	5.166415e+00	5.239501e+00	
297	1.088494e-03	5.166432e+00	5.278112e+00	
298	1.089249e-03	5.166343e+00	5.318393e+00	
299	1.089995e-03	5.166356e+00	5.358002e+00	
300	1.090677e-03	5.166341e+00	5.394145e+00	
301	1.091739e-03	5.166355e+00	5.450187e+00	
302	1.093631e-03	5.166339e+00	5.549504e+00	
303	1.096861e-03	5.166352e+00	5.717152e+00	
304	1.101861e-03	5.166333e+00	5.972041e+00	
305	1.106861e-03	5.157009e+00	6.221037e+00	
306	1.108454e-03	4.525258e+00	6.299086e+00	
307	1.109106e-03	4.184983e+00	6.330870e+00	
308	1.109480e-03	4.003574e+00	6.349023e+00	
309	1.109766e-03	3.851228e+00	6.362920e+00	
310	1.109983e-03	3.746593e+00	6.373422e+00	
311	1.110172e-03	3.646617e+00	6.382548e+00	
312	1.110364e-03	3.551823e+00	6.391864e+00	
313	1.110544e-03	3.458259e+00	6.400538e+00	
314	1.110754e-03	3.353320e+00	6.410670e+00	
315	1.111003e-03	3.225663e+00	6.422647e+00	
316	1.111337e-03	3.056872e+00	6.438741e+00	
317	1.111710e-03	2.866309e+00	6.456657e+00	
318	1.112252e-03	2.591952e+00	6.482607e+00	
319	1.113164e-03	2.127258e+00	6.526159e+00	
320	1.114866e-03	1.262618e+00	6.606817e+00	
321	1.118271e-03	-4.70019e-01	6.765857e+00	
322	1.123271e-03	-3.01439e+00	6.993816e+00	
323	1.128271e-03	-5.16284e+00	7.214873e+00	
324	1.129669e-03	-5.17299e+00	7.275440e+00	
325	1.131358e-03	-5.16280e+00	7.347820e+00	
326	1.132754e-03	-5.17134e+00	7.407059e+00	
327	1.134209e-03	-5.16484e+00	7.468139e+00	
328	1.135762e-03	-5.17034e+00	7.532671e+00	
329	1.137433e-03	-5.16449e+00	7.601335e+00	
330	1.139449e-03	-5.17016e+00	7.683005e+00	
331	1.141728e-03	-5.16474e+00	7.773898e+00	
332	1.144494e-03	-5.16990e+00	7.882037e+00	
333	1.147897e-03	-5.16378e+00	8.011802e+00	
334	1.151684e-03	-5.16895e+00	8.151921e+00	
335	1.156684e-03	-5.16387e+00	8.329827e+00	
336	1.161684e-03	-5.16959e+00	8.499512e+00	
337	1.166684e-03	-5.16476e+00	8.660809e+00	
338	1.171684e-03	-5.16937e+00	8.813559e+00	
339	1.176684e-03	-5.16463e+00	8.957611e+00	
340	1.181684e-03	-5.16932e+00	9.092823e+00	
341	1.186684e-03	-5.16470e+00	9.219062e+00	
342	1.191684e-03	-5.16924e+00	9.336202e+00	
343	1.196684e-03	-5.16473e+00	9.444129e+00	
344	1.201684e-03	-5.16917e+00	9.542735e+00	

Index   time            v(6)            v(2)            
--------------------------------------------------------------------------------
345	1.206684e-03	-5.16476e+00	9.631924e+00	
346	1.211684e-03	-5.16911e+00	9.711608e+00	
347	1.216684e-03	-5.16479e+00	9.781707e+00	
348	1.221684e-03	-5.16905e+00	9.842153e+00	
349	1.226684e-03	-5.16482e+00	9.892886e+00	
350	1.231684e-03	-5.16899e+00	9.933855e+00	
351	1.236684e-03	-5.16485e+00	9.965021e+00	
352	1.241684e-03	-5.16893e+00	9.986353e+00	
353	1.246684e-03	-5.16487e+00	9.997830e+00	
354	1.251684e-03	-5.16888e+00	9.999440e+00	
355	1.256684e-03	-5.16490e+00	9.991182e+00	
356	1.261684e-03	-5.16883e+00	9.973063e+00	
357	1.266684e-03	-5.16492e+00	9.945103e+00	
358	1.271684e-03	-5.16878e+00	9.907328e+00	
359	1.276684e-03	-5.16495e+00	9.859775e+00	
360	1.281684e-03	-5.16873e+00	9.802492e+00	
361	1.286684e-03	-5.16497e+00	9.735535e+00	
362	1.291684e-03	-5.16868e+00	9.658971e+00	
363	1.296684e-03	-5.16499e+00	9.572874e+00	
364	1.301684e-03	-5.16864e+00	9.477330e+00	
365	1.306684e-03	-5.16501e+00	9.372433e+00	
366	1.311684e-03	-5.16859e+00	9.258286e+00	
367	1.316684e-03	-5.16503e+00	9.135003e+00	
368	1.321684e-03	-5.16855e+00	9.002704e+00	
369	1.326684e-03	-5.16505e+00	8.861521e+00	
370	1.331684e-03	-5.16851e+00	8.711593e+00	
371	1.336684e-03	-5.16507e+00	8.553067e+00	
372	1.341684e-03	-5.16847e+00	8.386101e+00	
373	1.346684e-03	-5.16509e+00	8.210858e+00	
374	1.351684e-03	-5.16843e+00	8.027512e+00	
375	1.356684e-03	-5.16511e+00	7.836245e+00	
376	1.361684e-03	-5.16839e+00	7.637243e+00	
377	1.366684e-03	-5.16513e+00	7.430705e+00	
378	1.371684e-03	-5.16836e+00	7.216833e+00	
379	1.376684e-03	-5.16514e+00	6.995840e+00	
380	1.381684e-03	-5.16832e+00	6.767942e+00	
381	1.386684e-03	-5.16516e+00	6.533365e+00	
382	1.391684e-03	-5.16828e+00	6.292341e+00	
383	1.396684e-03	-5.16518e+00	6.045106e+00	
384	1.401684e-03	-5.16825e+00	5.791906e+00	
385	1.406684e-03	-5.16519e+00	5.532990e+00	
386	1.411684e-03	-5.16822e+00	5.268614e+00	
387	1.416684e-03	-5.16521e+00	4.999038e+00	
388	1.421684e-03	-5.16819e+00	4.724529e+00	
389	1.426684e-03	-5.16523e+00	4.445357e+00	
390	1.431684e-03	-5.16815e+00	4.161798e+00	
391	1.436684e-03	-5.16524e+00	3.874132e+00	
392	1.441684e-03	-5.16812e+00	3.582642e+00	
393	1.446684e-03	-5.16526e+00	3.287617e+00	
394	1.451684e-03	-5.16809e+00	2.989348e+00	
395	1.456684e-03	-5.16527e+00	2.688128e+00	
396	1.461684e-03	-5.16806e+00	2.384256e+00	
397	1.466684e-03	-5.16529e+00	2.078030e+00	
398	1.471684e-03	-5.16804e+00	1.769754e+00	
399	1.476684e-03	-5.16530e+00	1.459731e+00	
400	1.481684e-03	-5.16801e+00	1.148268e+00	
401	1.486684e-03	-5.16532e+00	8.356715e-01	
402	1.491684e-03	-5.16798e+00	5.222503e-01	

Index   time            v(6)            v(2)            
--------------------------------------------------------------------------------
403	1.496684e-03	-5.16533e+00	2.083136e-01	
404	1.501684e-03	-5.16795e+00	-1.05829e-01	
405	1.506684e-03	-5.16534e+00	-4.19866e-01	
406	1.511684e-03	-5.16793e+00	-7.33490e-01	
407	1.516684e-03	-5.16536e+00	-1.04639e+00	
408	1.521684e-03	-5.16790e+00	-1.35826e+00	
409	1.526684e-03	-5.16537e+00	-1.66878e+00	
410	1.531684e-03	-5.16787e+00	-1.97766e+00	
411	1.536684e-03	-5.16538e+00	-2.28459e+00	
412	1.541684e-03	-5.16785e+00	-2.58926e+00	
413	1.546684e-03	-5.16540e+00	-2.89138e+00	
414	1.551684e-03	-5.16783e+00	-3.19065e+00	
415	1.556684e-03	-5.16541e+00	-3.48676e+00	
416	1.561684e-03	-5.16780e+00	-3.77944e+00	
417	1.566684e-03	-5.16542e+00	-4.06838e+00	
418	1.571684e-03	-5.16778e+00	-4.35331e+00	
419	1.576684e-03	-5.16544e+00	-4.63394e+00	
420	1.581684e-03	-5.16759e+00	-4.91001e+00	
421	1.583586e-03	-5.16528e+00	-5.01372e+00	
422	1.584807e-03	-5.16753e+00	-5.07998e+00	
423	1.585462e-03	-5.16538e+00	-5.11535e+00	
424	1.586202e-03	-5.16742e+00	-5.15525e+00	
425	1.586597e-03	-5.16560e+00	-5.17654e+00	
